Freq.	V(out)
1.00000000000000e+000	(-4.00046072341122e+001dB,8.93980153369654e+001°)
1.00230523807790e+000	(-3.99846092418237e+001dB,8.93967627366274e+001°)
1.00461579027840e+000	(-3.99646112587534e+001dB,8.93955069388001e+001°)
1.00693166885180e+000	(-3.99446132849439e+001dB,8.93942479368308e+001°)
1.00925288607668e+000	(-3.99246153204383e+001dB,8.93929857240502e+001°)
1.01157945425990e+000	(-3.99046173652797e+001dB,8.93917202937718e+001°)
1.01391138573668e+000	(-3.98846194195114e+001dB,8.93904516392923e+001°)
1.01624869287070e+000	(-3.98646214831770e+001dB,8.93891797538911e+001°)
1.01859138805412e+000	(-3.98446235563202e+001dB,8.93879046308307e+001°)
1.02093948370768e+000	(-3.98246256389851e+001dB,8.93866262633564e+001°)
1.02329299228075e+000	(-3.98046277312157e+001dB,8.93853446446964e+001°)
1.02565192625141e+000	(-3.97846298330564e+001dB,8.93840597680615e+001°)
1.02801629812647e+000	(-3.97646319445517e+001dB,8.93827716266456e+001°)
1.03038612044162e+000	(-3.97446340657466e+001dB,8.93814802136250e+001°)
1.03276140576140e+000	(-3.97246361966858e+001dB,8.93801855221589e+001°)
1.03514216667934e+000	(-3.97046383374146e+001dB,8.93788875453891e+001°)
1.03752841581801e+000	(-3.96846404879784e+001dB,8.93775862764401e+001°)
1.03992016582906e+000	(-3.96646426484227e+001dB,8.93762817084188e+001°)
1.04231742939330e+000	(-3.96446448187934e+001dB,8.93749738344149e+001°)
1.04472021922080e+000	(-3.96246469991365e+001dB,8.93736626475004e+001°)
1.04712854805090e+000	(-3.96046491894982e+001dB,8.93723481407298e+001°)
1.04954242865232e+000	(-3.95846513899250e+001dB,8.93710303071402e+001°)
1.05196187382322e+000	(-3.95646536004634e+001dB,8.93697091397510e+001°)
1.05438689639126e+000	(-3.95446558211604e+001dB,8.93683846315640e+001°)
1.05681750921366e+000	(-3.95246580520630e+001dB,8.93670567755633e+001°)
1.05925372517729e+000	(-3.95046602932186e+001dB,8.93657255647153e+001°)
1.06169555719872e+000	(-3.94846625446746e+001dB,8.93643909919687e+001°)
1.06414301822431e+000	(-3.94646648064789e+001dB,8.93630530502543e+001°)
1.06659612123026e+000	(-3.94446670786792e+001dB,8.93617117324852e+001°)
1.06905487922266e+000	(-3.94246693613238e+001dB,8.93603670315567e+001°)
1.07151930523761e+000	(-3.94046716544612e+001dB,8.93590189403461e+001°)
1.07398941234124e+000	(-3.93846739581398e+001dB,8.93576674517128e+001°)
1.07646521362983e+000	(-3.93646762724086e+001dB,8.93563125584982e+001°)
1.07894672222983e+000	(-3.93446785973167e+001dB,8.93549542535257e+001°)
1.08143395129794e+000	(-3.93246809329132e+001dB,8.93535925296008e+001°)
1.08392691402120e+000	(-3.93046832792477e+001dB,8.93522273795108e+001°)
1.08642562361706e+000	(-3.92846856363700e+001dB,8.93508587960248e+001°)
1.08893009333343e+000	(-3.92646880043301e+001dB,8.93494867718940e+001°)
1.09144033644876e+000	(-3.92446903831780e+001dB,8.93481112998510e+001°)
1.09395636627209e+000	(-3.92246927729644e+001dB,8.93467323726107e+001°)
1.09647819614318e+000	(-3.92046951737397e+001dB,8.93453499828693e+001°)
1.09900583943252e+000	(-3.91846975855550e+001dB,8.93439641233049e+001°)
1.10153930954141e+000	(-3.91647000084613e+001dB,8.93425747865772e+001°)
1.10407861990207e+000	(-3.91447024425101e+001dB,8.93411819653274e+001°)
1.10662378397766e+000	(-3.91247048877529e+001dB,8.93397856521785e+001°)
1.10917481526240e+000	(-3.91047073442415e+001dB,8.93383858397350e+001°)
1.11173172728159e+000	(-3.90847098120281e+001dB,8.93369825205826e+001°)
1.11429453359173e+000	(-3.90647122911650e+001dB,8.93355756872889e+001°)
1.11686324778056e+000	(-3.90447147817046e+001dB,8.93341653324027e+001°)
1.11943788346715e+000	(-3.90247172836999e+001dB,8.93327514484541e+001°)
1.12201845430196e+000	(-3.90047197972038e+001dB,8.93313340279546e+001°)
1.12460497396692e+000	(-3.89847223222697e+001dB,8.93299130633972e+001°)
1.12719745617551e+000	(-3.89647248589510e+001dB,8.93284885472558e+001°)
1.12979591467280e+000	(-3.89447274073016e+001dB,8.93270604719859e+001°)
1.13240036323556e+000	(-3.89247299673754e+001dB,8.93256288300240e+001°)
1.13501081567231e+000	(-3.89047325392268e+001dB,8.93241936137877e+001°)
1.13762728582343e+000	(-3.88847351229103e+001dB,8.93227548156758e+001°)
1.14024978756117e+000	(-3.88647377184806e+001dB,8.93213124280680e+001°)
1.14287833478977e+000	(-3.88447403259927e+001dB,8.93198664433254e+001°)
1.14551294144553e+000	(-3.88247429455020e+001dB,8.93184168537896e+001°)
1.14815362149688e+000	(-3.88047455770640e+001dB,8.93169636517836e+001°)
1.15080038894443e+000	(-3.87847482207344e+001dB,8.93155068296109e+001°)
1.15345325782109e+000	(-3.87647508765693e+001dB,8.93140463795562e+001°)
1.15611224219210e+000	(-3.87447535446250e+001dB,8.93125822938848e+001°)
1.15877735615512e+000	(-3.87247562249581e+001dB,8.93111145648429e+001°)
1.16144861384034e+000	(-3.87047589176254e+001dB,8.93096431846574e+001°)
1.16412602941049e+000	(-3.86847616226839e+001dB,8.93081681455359e+001°)
1.16680961706096e+000	(-3.86647643401910e+001dB,8.93066894396666e+001°)
1.16949939101987e+000	(-3.86447670702044e+001dB,8.93052070592186e+001°)
1.17219536554813e+000	(-3.86247698127819e+001dB,8.93037209963412e+001°)
1.17489755493953e+000	(-3.86047725679815e+001dB,8.93022312431644e+001°)
1.17760597352080e+000	(-3.85847753358619e+001dB,8.93007377917987e+001°)
1.18032063565173e+000	(-3.85647781164815e+001dB,8.92992406343352e+001°)
1.18304155572516e+000	(-3.85447809098994e+001dB,8.92977397628451e+001°)
1.18576874816716e+000	(-3.85247837161748e+001dB,8.92962351693803e+001°)
1.18850222743702e+000	(-3.85047865353672e+001dB,8.92947268459728e+001°)
1.19124200802737e+000	(-3.84847893675362e+001dB,8.92932147846349e+001°)
1.19398810446427e+000	(-3.84647922127421e+001dB,8.92916989773593e+001°)
1.19674053130724e+000	(-3.84447950710450e+001dB,8.92901794161188e+001°)
1.19949930314938e+000	(-3.84247979425056e+001dB,8.92886560928663e+001°)
1.20226443461741e+000	(-3.84048008271848e+001dB,8.92871289995350e+001°)
1.20503594037179e+000	(-3.83848037251437e+001dB,8.92855981280381e+001°)
1.20781383510678e+000	(-3.83648066364436e+001dB,8.92840634702686e+001°)
1.21059813355048e+000	(-3.83448095611465e+001dB,8.92825250181000e+001°)
1.21338885046497e+000	(-3.83248124993141e+001dB,8.92809827633852e+001°)
1.21618600064636e+000	(-3.83048154510090e+001dB,8.92794366979575e+001°)
1.21898959892486e+000	(-3.82848184162934e+001dB,8.92778868136296e+001°)
1.22179966016487e+000	(-3.82648213952305e+001dB,8.92763331021943e+001°)
1.22461619926504e+000	(-3.82448243878833e+001dB,8.92747755554242e+001°)
1.22743923115840e+000	(-3.82248273943152e+001dB,8.92732141650716e+001°)
1.23026877081238e+000	(-3.82048304145899e+001dB,8.92716489228683e+001°)
1.23310483322890e+000	(-3.81848334487716e+001dB,8.92700798205261e+001°)
1.23594743344451e+000	(-3.81648364969245e+001dB,8.92685068497361e+001°)
1.23879658653036e+000	(-3.81448395591132e+001dB,8.92669300021690e+001°)
1.24165230759241e+000	(-3.81248426354027e+001dB,8.92653492694752e+001°)
1.24451461177138e+000	(-3.81048457258581e+001dB,8.92637646432845e+001°)
1.24738351424294e+000	(-3.80848488305450e+001dB,8.92621761152059e+001°)
1.25025903021771e+000	(-3.80648519495292e+001dB,8.92605836768283e+001°)
1.25314117494141e+000	(-3.80448550828767e+001dB,8.92589873197193e+001°)
1.25602996369487e+000	(-3.80248582306541e+001dB,8.92573870354264e+001°)
1.25892541179416e+000	(-3.80048613929280e+001dB,8.92557828154759e+001°)
1.26182753459066e+000	(-3.79848645697655e+001dB,8.92541746513735e+001°)
1.26473634747115e+000	(-3.79648677612339e+001dB,8.92525625346042e+001°)
1.26765186585784e+000	(-3.79448709674008e+001dB,8.92509464566318e+001°)
1.27057410520854e+000	(-3.79248741883343e+001dB,8.92493264088995e+001°)
1.27350308101666e+000	(-3.79048774241026e+001dB,8.92477023828293e+001°)
1.27643880881134e+000	(-3.78848806747742e+001dB,8.92460743698222e+001°)
1.27938130415752e+000	(-3.78648839404182e+001dB,8.92444423612584e+001°)
1.28233058265602e+000	(-3.78448872211037e+001dB,8.92428063484967e+001°)
1.28528665994361e+000	(-3.78248905169002e+001dB,8.92411663228748e+001°)
1.28824955169313e+000	(-3.78048938278777e+001dB,8.92395222757094e+001°)
1.29121927361353e+000	(-3.77848971541063e+001dB,8.92378741982958e+001°)
1.29419584144998e+000	(-3.77649004956564e+001dB,8.92362220819079e+001°)
1.29717927098395e+000	(-3.77449038525991e+001dB,8.92345659177985e+001°)
1.30016957803328e+000	(-3.77249072250053e+001dB,8.92329056971990e+001°)
1.30316677845229e+000	(-3.77049106129466e+001dB,8.92312414113192e+001°)
1.30617088813183e+000	(-3.76849140164948e+001dB,8.92295730513476e+001°)
1.30918192299940e+000	(-3.76649174357220e+001dB,8.92279006084511e+001°)
1.31219989901920e+000	(-3.76449208707008e+001dB,8.92262240737751e+001°)
1.31522483219223e+000	(-3.76249243215039e+001dB,8.92245434384432e+001°)
1.31825673855640e+000	(-3.76049277882045e+001dB,8.92228586935577e+001°)
1.32129563418657e+000	(-3.75849312708760e+001dB,8.92211698301990e+001°)
1.32434153519466e+000	(-3.75649347695923e+001dB,8.92194768394256e+001°)
1.32739445772973e+000	(-3.75449382844275e+001dB,8.92177797122744e+001°)
1.33045441797808e+000	(-3.75249418154562e+001dB,8.92160784397605e+001°)
1.33352143216332e+000	(-3.75049453627532e+001dB,8.92143730128770e+001°)
1.33659551654643e+000	(-3.74849489263936e+001dB,8.92126634225950e+001°)
1.33967668742593e+000	(-3.74649525064531e+001dB,8.92109496598638e+001°)
1.34276496113786e+000	(-3.74449561030074e+001dB,8.92092317156106e+001°)
1.34586035405594e+000	(-3.74249597161329e+001dB,8.92075095807405e+001°)
1.34896288259164e+000	(-3.74049633459061e+001dB,8.92057832461364e+001°)
1.35207256319427e+000	(-3.73849669924039e+001dB,8.92040527026592e+001°)
1.35518941235103e+000	(-3.73649706557037e+001dB,8.92023179411474e+001°)
1.35831344658715e+000	(-3.73449743358830e+001dB,8.92005789524174e+001°)
1.36144468246594e+000	(-3.73249780330200e+001dB,8.91988357272631e+001°)
1.36458313658892e+000	(-3.73049817471929e+001dB,8.91970882564563e+001°)
1.36772882559584e+000	(-3.72849854784805e+001dB,8.91953365307460e+001°)
1.37088176616484e+000	(-3.72649892269619e+001dB,8.91935805408592e+001°)
1.37404197501251e+000	(-3.72449929927165e+001dB,8.91918202775000e+001°)
1.37720946889394e+000	(-3.72249967758241e+001dB,8.91900557313502e+001°)
1.38038426460288e+000	(-3.72050005763650e+001dB,8.91882868930688e+001°)
1.38356637897177e+000	(-3.71850043944196e+001dB,8.91865137532922e+001°)
1.38675582887188e+000	(-3.71650082300689e+001dB,8.91847363026343e+001°)
1.38995263121334e+000	(-3.71450120833943e+001dB,8.91829545316859e+001°)
1.39315680294529e+000	(-3.71250159544773e+001dB,8.91811684310152e+001°)
1.39636836105593e+000	(-3.71050198434000e+001dB,8.91793779911677e+001°)
1.39958732257261e+000	(-3.70850237502449e+001dB,8.91775832026656e+001°)
1.40281370456195e+000	(-3.70650276750948e+001dB,8.91757840560084e+001°)
1.40604752412990e+000	(-3.70450316180328e+001dB,8.91739805416726e+001°)
1.40928879842186e+000	(-3.70250355791425e+001dB,8.91721726501117e+001°)
1.41253754462274e+000	(-3.70050395585079e+001dB,8.91703603717559e+001°)
1.41579377995707e+000	(-3.69850435562133e+001dB,8.91685436970125e+001°)
1.41905752168908e+000	(-3.69650475723434e+001dB,8.91667226162653e+001°)
1.42232878712281e+000	(-3.69450516069834e+001dB,8.91648971198751e+001°)
1.42560759360218e+000	(-3.69250556602188e+001dB,8.91630671981793e+001°)
1.42889395851109e+000	(-3.69050597321355e+001dB,8.91612328414920e+001°)
1.43218789927353e+000	(-3.68850638228198e+001dB,8.91593940401037e+001°)
1.43548943335364e+000	(-3.68650679323584e+001dB,8.91575507842818e+001°)
1.43879857825583e+000	(-3.68450720608383e+001dB,8.91557030642700e+001°)
1.44211535152486e+000	(-3.68250762083472e+001dB,8.91538508702883e+001°)
1.44543977074592e+000	(-3.68050803749728e+001dB,8.91519941925333e+001°)
1.44877185354475e+000	(-3.67850845608036e+001dB,8.91501330211779e+001°)
1.45211161758773e+000	(-3.67650887659282e+001dB,8.91482673463713e+001°)
1.45545908058195e+000	(-3.67450929904357e+001dB,8.91463971582390e+001°)
1.45881426027534e+000	(-3.67250972344157e+001dB,8.91445224468824e+001°)
1.46217717445671e+000	(-3.67051014979582e+001dB,8.91426432023793e+001°)
1.46554784095590e+000	(-3.66851057811534e+001dB,8.91407594147837e+001°)
1.46892627764385e+000	(-3.66651100840922e+001dB,8.91388710741252e+001°)
1.47231250243271e+000	(-3.66451144068658e+001dB,8.91369781704099e+001°)
1.47570653327588e+000	(-3.66251187495657e+001dB,8.91350806936194e+001°)
1.47910838816819e+000	(-3.66051231122841e+001dB,8.91331786337114e+001°)
1.48251808514594e+000	(-3.65851274951133e+001dB,8.91312719806194e+001°)
1.48593564228699e+000	(-3.65651318981463e+001dB,8.91293607242526e+001°)
1.48936107771090e+000	(-3.65451363214765e+001dB,8.91274448544960e+001°)
1.49279440957898e+000	(-3.65251407651974e+001dB,8.91255243612103e+001°)
1.49623565609442e+000	(-3.65051452294034e+001dB,8.91235992342316e+001°)
1.49968483550236e+000	(-3.64851497141889e+001dB,8.91216694633718e+001°)
1.50314196609001e+000	(-3.64651542196492e+001dB,8.91197350384182e+001°)
1.50660706618673e+000	(-3.64451587458796e+001dB,8.91177959491336e+001°)
1.51008015416413e+000	(-3.64251632929761e+001dB,8.91158521852561e+001°)
1.51356124843619e+000	(-3.64051678610350e+001dB,8.91139037364993e+001°)
1.51705036745932e+000	(-3.63851724501532e+001dB,8.91119505925519e+001°)
1.52054752973248e+000	(-3.63651770604280e+001dB,8.91099927430781e+001°)
1.52405275379728e+000	(-3.63451816919569e+001dB,8.91080301777170e+001°)
1.52756605823806e+000	(-3.63251863448382e+001dB,8.91060628860831e+001°)
1.53108746168202e+000	(-3.63051910191706e+001dB,8.91040908577658e+001°)
1.53461698279928e+000	(-3.62851957150529e+001dB,8.91021140823295e+001°)
1.53815464030302e+000	(-3.62652004325849e+001dB,8.91001325493137e+001°)
1.54170045294954e+000	(-3.62452051718664e+001dB,8.90981462482329e+001°)
1.54525443953840e+000	(-3.62252099329978e+001dB,8.90961551685760e+001°)
1.54881661891247e+000	(-3.62052147160802e+001dB,8.90941592998073e+001°)
1.55238700995807e+000	(-3.61852195212148e+001dB,8.90921586313655e+001°)
1.55596563160506e+000	(-3.61652243485034e+001dB,8.90901531526641e+001°)
1.55955250282694e+000	(-3.61452291980485e+001dB,8.90881428530911e+001°)
1.56314764264094e+000	(-3.61252340699527e+001dB,8.90861277220093e+001°)
1.56675107010813e+000	(-3.61052389643193e+001dB,8.90841077487559e+001°)
1.57036280433354e+000	(-3.60852438812521e+001dB,8.90820829226426e+001°)
1.57398286446620e+000	(-3.60652488208551e+001dB,8.90800532329555e+001°)
1.57761126969933e+000	(-3.60452537832332e+001dB,8.90780186689552e+001°)
1.58124803927037e+000	(-3.60252587684914e+001dB,8.90759792198763e+001°)
1.58489319246110e+000	(-3.60052637767354e+001dB,8.90739348749280e+001°)
1.58854674859776e+000	(-3.59852688080714e+001dB,8.90718856232934e+001°)
1.59220872705115e+000	(-3.59652738626060e+001dB,8.90698314541301e+001°)
1.59587914723672e+000	(-3.59452789404462e+001dB,8.90677723565693e+001°)
1.59955802861465e+000	(-3.59252840416997e+001dB,8.90657083197167e+001°)
1.60324539069002e+000	(-3.59052891664746e+001dB,8.90636393326516e+001°)
1.60694125301286e+000	(-3.58852943148795e+001dB,8.90615653844274e+001°)
1.61064563517825e+000	(-3.58652994870235e+001dB,8.90594864640714e+001°)
1.61435855682647e+000	(-3.58453046830161e+001dB,8.90574025605845e+001°)
1.61808003764305e+000	(-3.58253099029676e+001dB,8.90553136629416e+001°)
1.62181009735891e+000	(-3.58053151469885e+001dB,8.90532197600910e+001°)
1.62554875575047e+000	(-3.57853204151900e+001dB,8.90511208409549e+001°)
1.62929603263970e+000	(-3.57653257076836e+001dB,8.90490168944289e+001°)
1.63305194789432e+000	(-3.57453310245816e+001dB,8.90469079093821e+001°)
1.63681652142779e+000	(-3.57253363659965e+001dB,8.90447938746571e+001°)
1.64058977319952e+000	(-3.57053417320417e+001dB,8.90426747790699e+001°)
1.64437172321491e+000	(-3.56853471228308e+001dB,8.90405506114100e+001°)
1.64816239152549e+000	(-3.56653525384780e+001dB,8.90384213604398e+001°)
1.65196179822900e+000	(-3.56453579790981e+001dB,8.90362870148952e+001°)
1.65576996346951e+000	(-3.56253634448064e+001dB,8.90341475634852e+001°)
1.65958690743754e+000	(-3.56053689357186e+001dB,8.90320029948920e+001°)
1.66341265037015e+000	(-3.55853744519513e+001dB,8.90298532977706e+001°)
1.66724721255104e+000	(-3.55653799936212e+001dB,8.90276984607491e+001°)
1.67109061431069e+000	(-3.55453855608458e+001dB,8.90255384724287e+001°)
1.67494287602642e+000	(-3.55253911537430e+001dB,8.90233733213833e+001°)
1.67880401812254e+000	(-3.55053967724313e+001dB,8.90212029961595e+001°)
1.68267406107045e+000	(-3.54854024170299e+001dB,8.90190274852769e+001°)
1.68655302538872e+000	(-3.54654080876583e+001dB,8.90168467772276e+001°)
1.69044093164324e+000	(-3.54454137844367e+001dB,8.90146608604765e+001°)
1.69433780044731e+000	(-3.54254195074858e+001dB,8.90124697234608e+001°)
1.69824365246172e+000	(-3.54054252569269e+001dB,8.90102733545905e+001°)
1.70215850839493e+000	(-3.53854310328817e+001dB,8.90080717422478e+001°)
1.70608238900310e+000	(-3.53654368354727e+001dB,8.90058648747875e+001°)
1.71001531509027e+000	(-3.53454426648229e+001dB,8.90036527405367e+001°)
1.71395730750840e+000	(-3.53254485210557e+001dB,8.90014353277945e+001°)
1.71790838715757e+000	(-3.53054544042952e+001dB,8.89992126248326e+001°)
1.72186857498599e+000	(-3.52854603146661e+001dB,8.89969846198946e+001°)
1.72583789199018e+000	(-3.52654662522937e+001dB,8.89947513011963e+001°)
1.72981635921508e+000	(-3.52454722173036e+001dB,8.89925126569253e+001°)
1.73380399775412e+000	(-3.52254782098225e+001dB,8.89902686752414e+001°)
1.73780082874935e+000	(-3.52054842299771e+001dB,8.89880193442763e+001°)
1.74180687339159e+000	(-3.51854902778951e+001dB,8.89857646521334e+001°)
1.74582215292048e+000	(-3.51654963537046e+001dB,8.89835045868880e+001°)
1.74984668862464e+000	(-3.51455024575343e+001dB,8.89812391365870e+001°)
1.75388050184174e+000	(-3.51255085895136e+001dB,8.89789682892491e+001°)
1.75792361395867e+000	(-3.51055147497724e+001dB,8.89766920328644e+001°)
1.76197604641161e+000	(-3.50855209384413e+001dB,8.89744103553948e+001°)
1.76603782068614e+000	(-3.50655271556513e+001dB,8.89721232447733e+001°)
1.77010895831740e+000	(-3.50455334015341e+001dB,8.89698306889046e+001°)
1.77418948089014e+000	(-3.50255396762222e+001dB,8.89675326756647e+001°)
1.77827941003890e+000	(-3.50055459798484e+001dB,8.89652291929008e+001°)
1.78237876744807e+000	(-3.49855523125464e+001dB,8.89629202284313e+001°)
1.78648757485203e+000	(-3.49655586744502e+001dB,8.89606057700458e+001°)
1.79060585403527e+000	(-3.49455650656947e+001dB,8.89582858055051e+001°)
1.79473362683250e+000	(-3.49255714864154e+001dB,8.89559603225409e+001°)
1.79887091512876e+000	(-3.49055779367481e+001dB,8.89536293088557e+001°)
1.80301774085955e+000	(-3.48855844168297e+001dB,8.89512927521233e+001°)
1.80717412601090e+000	(-3.48655909267973e+001dB,8.89489506399880e+001°)
1.81134009261958e+000	(-3.48455974667890e+001dB,8.89466029600650e+001°)
1.81551566277311e+000	(-3.48256040369432e+001dB,8.89442496999403e+001°)
1.81970085860996e+000	(-3.48056106373992e+001dB,8.89418908471702e+001°)
1.82389570231961e+000	(-3.47856172682969e+001dB,8.89395263892821e+001°)
1.82810021614272e+000	(-3.47656239297767e+001dB,8.89371563137734e+001°)
1.83231442237119e+000	(-3.47456306219797e+001dB,8.89347806081124e+001°)
1.83653834334832e+000	(-3.47256373450477e+001dB,8.89323992597373e+001°)
1.84077200146893e+000	(-3.47056440991232e+001dB,8.89300122560571e+001°)
1.84501541917945e+000	(-3.46856508843492e+001dB,8.89276195844508e+001°)
1.84926861897805e+000	(-3.46656577008695e+001dB,8.89252212322676e+001°)
1.85353162341479e+000	(-3.46456645488286e+001dB,8.89228171868268e+001°)
1.85780445509167e+000	(-3.46256714283715e+001dB,8.89204074354179e+001°)
1.86208713666284e+000	(-3.46056783396439e+001dB,8.89179919653003e+001°)
1.86637969083464e+000	(-3.45856852827923e+001dB,8.89155707637033e+001°)
1.87068214036577e+000	(-3.45656922579637e+001dB,8.89131438178262e+001°)
